T6650 000:008.128   SEGGER J-Link V7.82 Log File
T6650 000:008.314   DLL Compiled: Oct 13 2022 13:32:51
T6650 000:008.337   Logging started @ 2025-07-13 19:06
T6650 000:008.360 - 8.371ms
T6650 000:008.392 JLINK_SetWarnOutHandler(...)
T6650 000:008.416 - 0.076ms
T6650 000:008.513 JLINK_OpenEx(...)
T6650 000:013.924   Firmware: J-Link V9 compiled May  7 2021 16:26:12
T6650 000:014.511   Firmware: J-Link V9 compiled May  7 2021 16:26:12
T6650 000:014.782   Decompressing FW timestamp took 171 us
T6650 000:021.513   Hardware: V9.70
T6650 000:021.582   S/N: 150710788
T6650 000:021.627   OEM: SEGGER
T6650 000:021.658   Feature(s): GDB, RDI, FlashBP, FlashDL, JFlash
T6650 000:037.878   TELNET listener socket opened on port 19021
T6650 000:038.054   WEBSRV WEBSRV_Init(): Starting webserver thread(s)
T6650 000:038.203   WEBSRV Failed to put socket into listener state (port 19080)
T6650 000:038.398   WEBSRV Webserver running on local port 19081
T6650 000:045.665 - 37.190ms returns "O.K."
T6650 000:045.752 JLINK_GetEmuCaps()
T6650 000:045.775 - 0.033ms returns 0xB9FF7BBF
T6650 000:045.801 JLINK_TIF_GetAvailable(...)
T6650 000:046.189 - 0.412ms
T6650 000:046.236 JLINK_SetErrorOutHandler(...)
T6650 000:046.259 - 0.034ms
T6650 000:046.343 JLINK_ExecCommand("ProjectFile = "D:\2025_RC\stm32Project\2025_R2_down_4.8\2025_R2_down_4.6\MDK-ARM\JLinkSettings.ini"", ...). 
T6650 000:069.390   Device "ARM7" selected.
T6650 000:070.502 - 24.177ms returns 0x00
T6650 000:076.293 JLINK_ExecCommand("Device = STM32F407ZGTx", ...). 
T6650 000:085.179   Device "STM32F407ZG" selected.
T6650 000:085.951 - 9.620ms returns 0x00
T6650 000:085.996 JLINK_ExecCommand("DisableConnectionTimeout", ...). 
T6650 000:086.017 - 0.010ms returns 0x01
T6650 000:086.037 JLINK_GetHardwareVersion()
T6650 000:086.055 - 0.026ms returns 97000
T6650 000:086.076 JLINK_GetDLLVersion()
T6650 000:086.093 - 0.025ms returns 78200
T6650 000:086.111 JLINK_GetOEMString(...)
T6650 000:086.130 JLINK_GetFirmwareString(...)
T6650 000:086.147 - 0.025ms
T6650 000:104.944 JLINK_GetDLLVersion()
T6650 000:104.997 - 0.061ms returns 78200
T6650 000:105.016 JLINK_GetCompileDateTime()
T6650 000:105.033 - 0.024ms
T6650 000:111.387 JLINK_GetFirmwareString(...)
T6650 000:111.438 - 0.062ms
T6650 000:117.789 JLINK_GetHardwareVersion()
T6650 000:117.835 - 0.055ms returns 97000
T6650 000:125.871 JLINK_GetSN()
T6650 000:125.929 - 0.066ms returns 150710788
T6650 000:132.447 JLINK_GetOEMString(...)
T6650 000:145.851 JLINK_TIF_Select(JLINKARM_TIF_SWD)
T6650 000:146.513 - 0.689ms returns 0x00
T6650 000:146.554 JLINK_HasError()
T6650 000:146.587 JLINK_SetSpeed(10000)
T6650 000:146.705 - 0.127ms
T6650 000:146.726 JLINK_GetId()
T6650 000:152.914   InitTarget() start
T6650 000:152.993    J-Link Script File: Executing InitTarget()
T6650 000:165.919   InitTarget() end
T6650 000:173.240   Found SW-DP with ID 0x2BA01477
T6650 000:181.249   DPIDR: 0x2BA01477
T6650 000:187.241   CoreSight SoC-400 or earlier
T6650 000:195.151   Scanning AP map to find all available APs
T6650 000:201.395   AP[1]: Stopped AP scan as end of AP map has been reached
T6650 000:208.138   AP[0]: AHB-AP (IDR: 0x24770011)
T6650 000:213.954   Iterating through AP map to find AHB-AP to use
T6650 000:223.033   AP[0]: Core found
T6650 000:231.354   AP[0]: AHB-AP ROM base: 0xE00FF000
T6650 000:243.274   CPUID register: 0x410FC241. Implementer code: 0x41 (ARM)
T6650 000:249.380   Found Cortex-M4 r0p1, Little endian.
T6650 000:249.881   -- Max. mem block: 0x00010928
T6650 000:251.814   CPU_ReadMem(4 bytes @ 0xE000EDF0)
T6650 000:252.135   CPU_ReadMem(4 bytes @ 0xE0002000)
T6650 000:258.325   FPUnit: 6 code (BP) slots and 2 literal slots
T6650 000:258.394   CPU_ReadMem(4 bytes @ 0xE000EDFC)
T6650 000:258.719   CPU_ReadMem(4 bytes @ 0xE0001000)
T6650 000:259.001   CPU_WriteMem(4 bytes @ 0xE0001000)
T6650 000:259.291   CPU_ReadMem(4 bytes @ 0xE000ED88)
T6650 000:259.572   CPU_WriteMem(4 bytes @ 0xE000ED88)
T6650 000:259.946   CPU_ReadMem(4 bytes @ 0xE000ED88)
T6650 000:260.253   CPU_WriteMem(4 bytes @ 0xE000ED88)
T6650 000:267.308   CoreSight components:
T6650 000:274.242   ROMTbl[0] @ E00FF000
T6650 000:274.312   CPU_ReadMem(64 bytes @ 0xE00FF000)
T6650 000:274.989   CPU_ReadMem(32 bytes @ 0xE000EFE0)
T6650 000:282.270   [0][0]: E000E000 CID B105E00D PID 000BB00C SCS-M7
T6650 000:282.318   CPU_ReadMem(32 bytes @ 0xE0001FE0)
T6650 000:289.569   [0][1]: E0001000 CID B105E00D PID 003BB002 DWT
T6650 000:289.636   CPU_ReadMem(32 bytes @ 0xE0002FE0)
T6650 000:295.747   [0][2]: E0002000 CID B105E00D PID 002BB003 FPB
T6650 000:295.828   CPU_ReadMem(32 bytes @ 0xE0000FE0)
T6650 000:304.021   [0][3]: E0000000 CID B105E00D PID 003BB001 ITM
T6650 000:304.088   CPU_ReadMem(32 bytes @ 0xE0040FE0)
T6650 000:310.552   [0][4]: E0040000 CID B105900D PID 000BB9A1 TPIU
T6650 000:310.623   CPU_ReadMem(32 bytes @ 0xE0041FE0)
T6650 000:318.550   [0][5]: E0041000 CID B105900D PID 000BB925 ETM
T6650 000:319.090 - 172.421ms returns 0x2BA01477
T6650 000:319.186 JLINK_GetDLLVersion()
T6650 000:319.215 - 0.082ms returns 78200
T6650 000:319.292 JLINK_CORE_GetFound()
T6650 000:319.320 - 0.042ms returns 0xE0000FF
T6650 000:319.350 JLINK_GetDebugInfo(0x100 = JLINKARM_ROM_TABLE_ADDR_INDEX)
T6650 000:319.397   Value=0xE00FF000
T6650 000:319.677 - 0.434ms returns 0
T6650 000:324.666 JLINK_GetDebugInfo(0x100 = JLINKARM_ROM_TABLE_ADDR_INDEX)
T6650 000:324.700   Value=0xE00FF000
T6650 000:324.725 - 0.067ms returns 0
T6650 000:324.744 JLINK_GetDebugInfo(0x101 = JLINKARM_DEBUG_INFO_ETM_ADDR_INDEX)
T6650 000:324.760   Value=0xE0041000
T6650 000:324.785 - 0.050ms returns 0
T6650 000:324.815 JLINK_ReadMemEx(0xE0041FD0, 0x20 Bytes, Flags = 0x02000004)
T6650 000:324.856   CPU_ReadMem(32 bytes @ 0xE0041FD0)
T6650 000:325.267   Data:  04 00 00 00 00 00 00 00 00 00 00 00 00 00 00 00 ...
T6650 000:325.294 - 0.487ms returns 32 (0x20)
T6650 000:325.315 JLINK_GetDebugInfo(0x102 = JLINKARM_DEBUG_INFO_MTB_ADDR_INDEX)
T6650 000:325.337   Value=0x00000000
T6650 000:325.368 - 0.063ms returns 0
T6650 000:325.392 JLINK_GetDebugInfo(0x103 = JLINKARM_DEBUG_INFO_TPIU_ADDR_INDEX)
T6650 000:325.414   Value=0xE0040000
T6650 000:325.444 - 0.063ms returns 0
T6650 000:325.466 JLINK_GetDebugInfo(0x104 = JLINKARM_DEBUG_INFO_ITM_ADDR_INDEX)
T6650 000:325.487   Value=0xE0000000
T6650 000:325.517 - 0.060ms returns 0
T6650 000:325.538 JLINK_GetDebugInfo(0x105 = JLINKARM_DEBUG_INFO_DWT_ADDR_INDEX)
T6650 000:325.559   Value=0xE0001000
T6650 000:325.590 - 0.061ms returns 0
T6650 000:325.610 JLINK_GetDebugInfo(0x106 = JLINKARM_DEBUG_INFO_FPB_ADDR_INDEX)
T6650 000:325.631   Value=0xE0002000
T6650 000:325.663 - 0.063ms returns 0
T6650 000:325.686 JLINK_GetDebugInfo(0x107 = JLINKARM_DEBUG_INFO_NVIC_ADDR_INDEX)
T6650 000:325.709   Value=0xE000E000
T6650 000:325.740 - 0.063ms returns 0
T6650 000:325.762 JLINK_GetDebugInfo(0x10C = JLINKARM_DEBUG_INFO_DBG_ADDR_INDEX)
T6650 000:325.785   Value=0xE000EDF0
T6650 000:325.816 - 0.064ms returns 0
T6650 000:325.942 JLINK_GetDebugInfo(0x01 = Unknown)
T6650 000:326.017   Value=0x00000001
T6650 000:326.051 - 0.121ms returns 0
T6650 000:326.077 JLINK_ReadMemU32(0xE000ED00, 0x1 Items)
T6650 000:326.106   CPU_ReadMem(4 bytes @ 0xE000ED00)
T6650 000:326.484   Data:  41 C2 0F 41
T6650 000:326.533   Debug reg: CPUID
T6650 000:326.562 - 0.495ms returns 1 (0x1)
T6650 000:326.588 JLINK_GetDebugInfo(0x10F = JLINKARM_DEBUG_INFO_HAS_CORTEX_M_SECURITY_EXT_INDEX)
T6650 000:326.609   Value=0x00000000
T6650 000:326.638 - 0.058ms returns 0
T6650 000:326.660 JLINK_HasError()
T6650 000:326.684 JLINK_SetResetType(JLINKARM_CM3_RESET_TYPE_NORMAL)
T6650 000:326.706 - 0.033ms returns JLINKARM_CM3_RESET_TYPE_NORMAL
T6650 000:326.730 JLINK_Reset()
T6650 000:326.783   CPU is running
T6650 000:326.836   CPU_WriteMem(4 bytes @ 0xE000EDF0)
T6650 000:327.263   CPU is running
T6650 000:327.306   CPU_WriteMem(4 bytes @ 0xE000EDFC)
T6650 000:334.968   Reset: Halt core after reset via DEMCR.VC_CORERESET.
T6650 000:341.404   Reset: Reset device via AIRCR.SYSRESETREQ.
T6650 000:341.466   CPU is running
T6650 000:341.502   CPU_WriteMem(4 bytes @ 0xE000ED0C)
T6650 000:394.779   CPU_ReadMem(4 bytes @ 0xE000EDF0)
T6650 000:395.164   CPU_ReadMem(4 bytes @ 0xE000EDF0)
T6650 000:395.484   CPU is running
T6650 000:395.544   CPU_WriteMem(4 bytes @ 0xE000EDF0)
T6650 000:395.878   CPU is running
T6650 000:395.934   CPU_WriteMem(4 bytes @ 0xE000EDFC)
T6650 000:401.501   CPU_ReadMem(4 bytes @ 0xE000EDF0)
T6650 000:404.187   CPU_WriteMem(4 bytes @ 0xE0002000)
T6650 000:404.695   CPU_ReadMem(4 bytes @ 0xE000EDFC)
T6650 000:405.267   CPU_ReadMem(4 bytes @ 0xE0001000)
T6650 000:405.689 - 78.985ms
T6650 000:405.758 JLINK_Halt()
T6650 000:405.799 - 0.064ms returns 0x00
T6650 000:405.848 JLINK_ReadMemU32(0xE000EDF0, 0x1 Items)
T6650 000:405.907   CPU_ReadMem(4 bytes @ 0xE000EDF0)
T6650 000:406.326   Data:  03 00 03 00
T6650 000:406.416   Debug reg: DHCSR
T6650 000:406.488 - 0.657ms returns 1 (0x1)
T6650 000:406.611 JLINK_WriteU32_64(0xE000EDF0, 0xA05F0003)
T6650 000:406.652   Debug reg: DHCSR
T6650 000:407.228   CPU_WriteMem(4 bytes @ 0xE000EDF0)
T6650 000:407.702 - 1.142ms returns 0 (0x00000000)
T6650 000:407.782 JLINK_WriteU32_64(0xE000EDFC, 0x01000000)
T6650 000:407.817   Debug reg: DEMCR
T6650 000:407.897   CPU_WriteMem(4 bytes @ 0xE000EDFC)
T6650 000:408.271 - 0.528ms returns 0 (0x00000000)
T6650 000:451.732 JLINK_GetHWStatus(...)
T6650 000:453.133 - 1.425ms returns 0
T6650 000:477.980 JLINK_GetNumBPUnits(Type = 0xFFFFFF00)
T6650 000:478.031 - 0.059ms returns 0x06
T6650 000:478.051 JLINK_GetNumBPUnits(Type = 0xF0)
T6650 000:478.067 - 0.024ms returns 0x2000
T6650 000:478.086 JLINK_GetNumWPUnits()
T6650 000:478.102 - 0.024ms returns 4
T6650 000:498.395 JLINK_GetSpeed()
T6650 000:498.450 - 0.064ms returns 6000
T6650 000:515.153 JLINK_ReadMemU32(0xE000E004, 0x1 Items)
T6650 000:515.213   CPU_ReadMem(4 bytes @ 0xE000E004)
T6650 000:515.502   Data:  02 00 00 00
T6650 000:515.526 - 0.379ms returns 1 (0x1)
T6650 000:515.543 JLINK_ReadMemU32(0xE000E004, 0x1 Items)
T6650 000:515.560   CPU_ReadMem(4 bytes @ 0xE000E004)
T6650 000:515.807   Data:  02 00 00 00
T6650 000:515.829 - 0.292ms returns 1 (0x1)
T6650 000:515.845 JLINK_WriteMemEx(0xE0001000, 0x0000001C Bytes, Flags = 0x02000004)
T6650 000:515.859   Data:  01 00 00 00 00 00 00 00 00 00 00 00 00 00 00 00 ...
T6650 000:515.885   CPU_WriteMem(28 bytes @ 0xE0001000)
T6650 000:516.223 - 0.385ms returns 0x1C
T6650 000:516.243 JLINK_Halt()
T6650 000:516.257 - 0.020ms returns 0x00
T6650 000:516.274 JLINK_IsHalted()
T6650 000:516.288 - 0.021ms returns TRUE
T6650 000:519.475 JLINK_WriteMem(0x20000000, 0x180 Bytes, ...)
T6650 000:519.503   Data:  00 BE 0A E0 0D 78 2D 06 68 40 08 24 40 00 00 D3 ...
T6650 000:519.781   CPU_WriteMem(384 bytes @ 0x20000000)
T6650 000:521.467 - 2.009ms returns 0x180
T6650 000:521.518 JLINK_HasError()
T6650 000:521.536 JLINK_WriteReg(R0, 0x08000000)
T6650 000:521.557 - 0.028ms returns 0
T6650 000:521.573 JLINK_WriteReg(R1, 0x007A1200)
T6650 000:521.588 - 0.021ms returns 0
T6650 000:521.603 JLINK_WriteReg(R2, 0x00000001)
T6650 000:521.617 - 0.021ms returns 0
T6650 000:521.632 JLINK_WriteReg(R3, 0x00000000)
T6650 000:521.646 - 0.021ms returns 0
T6650 000:521.661 JLINK_WriteReg(R4, 0x00000000)
T6650 000:521.675 - 0.020ms returns 0
T6650 000:521.690 JLINK_WriteReg(R5, 0x00000000)
T6650 000:521.704 - 0.021ms returns 0
T6650 000:521.719 JLINK_WriteReg(R6, 0x00000000)
T6650 000:521.733 - 0.020ms returns 0
T6650 000:521.747 JLINK_WriteReg(R7, 0x00000000)
T6650 000:521.761 - 0.020ms returns 0
T6650 000:521.776 JLINK_WriteReg(R8, 0x00000000)
T6650 000:521.801 - 0.032ms returns 0
T6650 000:521.816 JLINK_WriteReg(R9, 0x2000017C)
T6650 000:521.831 - 0.021ms returns 0
T6650 000:521.846 JLINK_WriteReg(R10, 0x00000000)
T6650 000:521.860 - 0.021ms returns 0
T6650 000:521.875 JLINK_WriteReg(R11, 0x00000000)
T6650 000:521.889 - 0.021ms returns 0
T6650 000:521.904 JLINK_WriteReg(R12, 0x00000000)
T6650 000:521.919 - 0.021ms returns 0
T6650 000:521.934 JLINK_WriteReg(R13 (SP), 0x20001000)
T6650 000:521.949 - 0.022ms returns 0
T6650 000:521.966 JLINK_WriteReg(R14, 0x20000001)
T6650 000:521.984 - 0.024ms returns 0
T6650 000:521.999 JLINK_WriteReg(R15 (PC), 0x20000054)
T6650 000:522.017 - 0.025ms returns 0
T6650 000:522.032 JLINK_WriteReg(XPSR, 0x01000000)
T6650 000:522.046 - 0.021ms returns 0
T6650 000:522.061 JLINK_WriteReg(MSP, 0x20001000)
T6650 000:522.075 - 0.020ms returns 0
T6650 000:522.090 JLINK_WriteReg(PSP, 0x20001000)
T6650 000:522.104 - 0.020ms returns 0
T6650 000:522.118 JLINK_WriteReg(CFBP, 0x00000000)
T6650 000:522.133 - 0.021ms returns 0
T6650 000:522.148 JLINK_SetBPEx(Addr = 0x20000000, Type = 0xFFFFFFF2)
T6650 000:522.170   CPU_ReadMem(2 bytes @ 0x20000000)
T6650 000:522.436 - 0.296ms returns 0x00000001
T6650 000:522.454 JLINK_Go()
T6650 000:522.470   CPU_WriteMem(2 bytes @ 0x20000000)
T6650 000:522.755   CPU_ReadMem(4 bytes @ 0xE0001000)
T6650 000:523.022   CPU_WriteMem(4 bytes @ 0xE0002008)
T6650 000:523.044   CPU_WriteMem(4 bytes @ 0xE000200C)
T6650 000:523.065   CPU_WriteMem(4 bytes @ 0xE0002010)
T6650 000:523.085   CPU_WriteMem(4 bytes @ 0xE0002014)
T6650 000:523.106   CPU_WriteMem(4 bytes @ 0xE0002018)
T6650 000:523.126   CPU_WriteMem(4 bytes @ 0xE000201C)
T6650 000:524.135   CPU_WriteMem(4 bytes @ 0xE0001004)
T6650 000:526.274 - 3.839ms
T6650 000:526.308 JLINK_IsHalted()
T6650 000:528.247   CPU_ReadMem(2 bytes @ 0x20000000)
T6650 000:528.654 - 2.365ms returns TRUE
T6650 000:528.685 JLINK_ReadReg(R15 (PC))
T6650 000:528.703 - 0.024ms returns 0x20000000
T6650 000:528.719 JLINK_ClrBPEx(BPHandle = 0x00000001)
T6650 000:528.733 - 0.022ms returns 0x00
T6650 000:528.749 JLINK_ReadReg(R0)
T6650 000:528.763 - 0.021ms returns 0x00000000
T6650 000:529.226 JLINK_HasError()
T6650 000:529.262 JLINK_WriteReg(R0, 0x08000000)
T6650 000:529.283 - 0.029ms returns 0
T6650 000:529.301 JLINK_WriteReg(R1, 0x00004000)
T6650 000:529.319 - 0.026ms returns 0
T6650 000:529.338 JLINK_WriteReg(R2, 0x000000FF)
T6650 000:529.356 - 0.026ms returns 0
T6650 000:529.374 JLINK_WriteReg(R3, 0x00000000)
T6650 000:529.394 - 0.028ms returns 0
T6650 000:529.416 JLINK_WriteReg(R4, 0x00000000)
T6650 000:529.440 - 0.038ms returns 0
T6650 000:529.469 JLINK_WriteReg(R5, 0x00000000)
T6650 000:529.493 - 0.035ms returns 0
T6650 000:529.517 JLINK_WriteReg(R6, 0x00000000)
T6650 000:529.541 - 0.035ms returns 0
T6650 000:529.565 JLINK_WriteReg(R7, 0x00000000)
T6650 000:529.583 - 0.026ms returns 0
T6650 000:529.602 JLINK_WriteReg(R8, 0x00000000)
T6650 000:529.619 - 0.026ms returns 0
T6650 000:529.638 JLINK_WriteReg(R9, 0x2000017C)
T6650 000:529.655 - 0.026ms returns 0
T6650 000:529.674 JLINK_WriteReg(R10, 0x00000000)
T6650 000:529.691 - 0.024ms returns 0
T6650 000:529.706 JLINK_WriteReg(R11, 0x00000000)
T6650 000:529.720 - 0.021ms returns 0
T6650 000:529.735 JLINK_WriteReg(R12, 0x00000000)
T6650 000:529.749 - 0.021ms returns 0
T6650 000:529.764 JLINK_WriteReg(R13 (SP), 0x20001000)
T6650 000:529.779 - 0.021ms returns 0
T6650 000:529.794 JLINK_WriteReg(R14, 0x20000001)
T6650 000:529.808 - 0.021ms returns 0
T6650 000:529.823 JLINK_WriteReg(R15 (PC), 0x20000020)
T6650 000:529.837 - 0.021ms returns 0
T6650 000:529.852 JLINK_WriteReg(XPSR, 0x01000000)
T6650 000:529.866 - 0.021ms returns 0
T6650 000:529.881 JLINK_WriteReg(MSP, 0x20001000)
T6650 000:529.895 - 0.021ms returns 0
T6650 000:529.910 JLINK_WriteReg(PSP, 0x20001000)
T6650 000:529.924 - 0.020ms returns 0
T6650 000:529.939 JLINK_WriteReg(CFBP, 0x00000000)
T6650 000:529.953 - 0.021ms returns 0
T6650 000:529.968 JLINK_SetBPEx(Addr = 0x20000000, Type = 0xFFFFFFF2)
T6650 000:529.985 - 0.023ms returns 0x00000002
T6650 000:530.000 JLINK_Go()
T6650 000:530.021   CPU_ReadMem(4 bytes @ 0xE0001000)
T6650 000:532.244 - 2.263ms
T6650 000:532.274 JLINK_IsHalted()
T6650 000:532.518 - 0.252ms returns FALSE
T6650 000:532.537 JLINK_HasError()
T6650 000:567.413 JLINK_IsHalted()
T6650 000:569.700   CPU_ReadMem(2 bytes @ 0x20000000)
T6650 000:569.998 - 2.596ms returns TRUE
T6650 000:570.022 JLINK_ReadReg(R15 (PC))
T6650 000:570.041 - 0.028ms returns 0x20000000
T6650 000:570.109 JLINK_ClrBPEx(BPHandle = 0x00000002)
T6650 000:570.128 - 0.026ms returns 0x00
T6650 000:570.143 JLINK_ReadReg(R0)
T6650 000:570.158 - 0.021ms returns 0x00000000
T6650 000:570.632 JLINK_HasError()
T6650 000:570.669 JLINK_WriteReg(R0, 0x08004000)
T6650 000:570.687 - 0.024ms returns 0
T6650 000:570.703 JLINK_WriteReg(R1, 0x00004000)
T6650 000:570.717 - 0.021ms returns 0
T6650 000:570.733 JLINK_WriteReg(R2, 0x000000FF)
T6650 000:570.747 - 0.021ms returns 0
T6650 000:570.762 JLINK_WriteReg(R3, 0x00000000)
T6650 000:570.781 - 0.026ms returns 0
T6650 000:570.798 JLINK_WriteReg(R4, 0x00000000)
T6650 000:570.820 - 0.032ms returns 0
T6650 000:570.842 JLINK_WriteReg(R5, 0x00000000)
T6650 000:570.862 - 0.030ms returns 0
T6650 000:570.883 JLINK_WriteReg(R6, 0x00000000)
T6650 000:570.903 - 0.029ms returns 0
T6650 000:570.924 JLINK_WriteReg(R7, 0x00000000)
T6650 000:570.938 - 0.021ms returns 0
T6650 000:570.958 JLINK_WriteReg(R8, 0x00000000)
T6650 000:570.973 - 0.021ms returns 0
T6650 000:570.989 JLINK_WriteReg(R9, 0x2000017C)
T6650 000:571.004 - 0.021ms returns 0
T6650 000:571.019 JLINK_WriteReg(R10, 0x00000000)
T6650 000:571.033 - 0.021ms returns 0
T6650 000:571.049 JLINK_WriteReg(R11, 0x00000000)
T6650 000:571.063 - 0.021ms returns 0
T6650 000:571.079 JLINK_WriteReg(R12, 0x00000000)
T6650 000:571.093 - 0.021ms returns 0
T6650 000:571.108 JLINK_WriteReg(R13 (SP), 0x20001000)
T6650 000:571.123 - 0.022ms returns 0
T6650 000:571.139 JLINK_WriteReg(R14, 0x20000001)
T6650 000:571.153 - 0.021ms returns 0
T6650 000:571.168 JLINK_WriteReg(R15 (PC), 0x20000020)
T6650 000:571.183 - 0.021ms returns 0
T6650 000:571.198 JLINK_WriteReg(XPSR, 0x01000000)
T6650 000:571.213 - 0.021ms returns 0
T6650 000:571.228 JLINK_WriteReg(MSP, 0x20001000)
T6650 000:571.242 - 0.021ms returns 0
T6650 000:571.257 JLINK_WriteReg(PSP, 0x20001000)
T6650 000:571.272 - 0.021ms returns 0
T6650 000:571.287 JLINK_WriteReg(CFBP, 0x00000000)
T6650 000:571.301 - 0.021ms returns 0
T6650 000:571.317 JLINK_SetBPEx(Addr = 0x20000000, Type = 0xFFFFFFF2)
T6650 000:571.333 - 0.023ms returns 0x00000003
T6650 000:571.349 JLINK_Go()
T6650 000:571.373   CPU_ReadMem(4 bytes @ 0xE0001000)
T6650 000:573.532 - 2.229ms
T6650 000:573.618 JLINK_IsHalted()
T6650 000:573.853 - 0.243ms returns FALSE
T6650 000:573.872 JLINK_HasError()
T6650 000:581.568 JLINK_IsHalted()
T6650 000:582.145 - 0.586ms returns FALSE
T6650 000:582.164 JLINK_HasError()
T6650 000:584.285 JLINK_IsHalted()
T6650 000:584.536 - 0.260ms returns FALSE
T6650 000:584.555 JLINK_HasError()
T6650 000:587.550 JLINK_IsHalted()
T6650 000:587.846 - 0.308ms returns FALSE
T6650 000:587.865 JLINK_HasError()
T6650 000:589.986 JLINK_IsHalted()
T6650 000:592.240   CPU_ReadMem(2 bytes @ 0x20000000)
T6650 000:592.514 - 2.541ms returns TRUE
T6650 000:592.539 JLINK_ReadReg(R15 (PC))
T6650 000:592.557 - 0.025ms returns 0x20000000
T6650 000:592.573 JLINK_ClrBPEx(BPHandle = 0x00000003)
T6650 000:592.588 - 0.022ms returns 0x00
T6650 000:592.604 JLINK_ReadReg(R0)
T6650 000:592.618 - 0.021ms returns 0x00000000
T6650 000:593.143 JLINK_HasError()
T6650 000:593.170 JLINK_WriteReg(R0, 0x08008000)
T6650 000:593.187 - 0.024ms returns 0
T6650 000:593.203 JLINK_WriteReg(R1, 0x00004000)
T6650 000:593.218 - 0.022ms returns 0
T6650 000:593.234 JLINK_WriteReg(R2, 0x000000FF)
T6650 000:593.249 - 0.022ms returns 0
T6650 000:593.264 JLINK_WriteReg(R3, 0x00000000)
T6650 000:593.279 - 0.021ms returns 0
T6650 000:593.294 JLINK_WriteReg(R4, 0x00000000)
T6650 000:593.308 - 0.021ms returns 0
T6650 000:593.324 JLINK_WriteReg(R5, 0x00000000)
T6650 000:593.339 - 0.021ms returns 0
T6650 000:593.355 JLINK_WriteReg(R6, 0x00000000)
T6650 000:593.370 - 0.021ms returns 0
T6650 000:593.385 JLINK_WriteReg(R7, 0x00000000)
T6650 000:593.400 - 0.021ms returns 0
T6650 000:593.415 JLINK_WriteReg(R8, 0x00000000)
T6650 000:593.430 - 0.021ms returns 0
T6650 000:593.445 JLINK_WriteReg(R9, 0x2000017C)
T6650 000:593.459 - 0.021ms returns 0
T6650 000:593.475 JLINK_WriteReg(R10, 0x00000000)
T6650 000:593.536 - 0.070ms returns 0
T6650 000:593.554 JLINK_WriteReg(R11, 0x00000000)
T6650 000:593.568 - 0.021ms returns 0
T6650 000:593.584 JLINK_WriteReg(R12, 0x00000000)
T6650 000:593.598 - 0.021ms returns 0
T6650 000:593.614 JLINK_WriteReg(R13 (SP), 0x20001000)
T6650 000:593.629 - 0.022ms returns 0
T6650 000:593.645 JLINK_WriteReg(R14, 0x20000001)
T6650 000:593.659 - 0.022ms returns 0
T6650 000:593.675 JLINK_WriteReg(R15 (PC), 0x20000020)
T6650 000:593.690 - 0.022ms returns 0
T6650 000:593.705 JLINK_WriteReg(XPSR, 0x01000000)
T6650 000:593.720 - 0.022ms returns 0
T6650 000:593.736 JLINK_WriteReg(MSP, 0x20001000)
T6650 000:593.750 - 0.021ms returns 0
T6650 000:593.766 JLINK_WriteReg(PSP, 0x20001000)
T6650 000:593.781 - 0.022ms returns 0
T6650 000:593.796 JLINK_WriteReg(CFBP, 0x00000000)
T6650 000:593.810 - 0.021ms returns 0
T6650 000:593.826 JLINK_SetBPEx(Addr = 0x20000000, Type = 0xFFFFFFF2)
T6650 000:593.842 - 0.023ms returns 0x00000004
T6650 000:593.858 JLINK_Go()
T6650 000:593.880   CPU_ReadMem(4 bytes @ 0xE0001000)
T6650 000:596.495 - 2.651ms
T6650 000:596.520 JLINK_IsHalted()
T6650 000:596.772 - 0.260ms returns FALSE
T6650 000:596.789 JLINK_HasError()
T6650 000:604.637 JLINK_IsHalted()
T6650 000:604.950 - 0.326ms returns FALSE
T6650 000:604.979 JLINK_HasError()
T6650 000:608.971 JLINK_IsHalted()
T6650 000:609.330 - 0.368ms returns FALSE
T6650 000:609.350 JLINK_HasError()
T6650 000:611.071 JLINK_IsHalted()
T6650 000:613.097   CPU_ReadMem(2 bytes @ 0x20000000)
T6650 000:613.403 - 2.341ms returns TRUE
T6650 000:613.429 JLINK_ReadReg(R15 (PC))
T6650 000:613.447 - 0.024ms returns 0x20000000
T6650 000:613.464 JLINK_ClrBPEx(BPHandle = 0x00000004)
T6650 000:613.479 - 0.022ms returns 0x00
T6650 000:613.497 JLINK_ReadReg(R0)
T6650 000:613.512 - 0.022ms returns 0x00000000
T6650 000:613.977 JLINK_HasError()
T6650 000:614.010 JLINK_WriteReg(R0, 0x0800C000)
T6650 000:614.029 - 0.026ms returns 0
T6650 000:614.045 JLINK_WriteReg(R1, 0x00004000)
T6650 000:614.060 - 0.021ms returns 0
T6650 000:614.075 JLINK_WriteReg(R2, 0x000000FF)
T6650 000:614.089 - 0.021ms returns 0
T6650 000:614.104 JLINK_WriteReg(R3, 0x00000000)
T6650 000:614.123 - 0.026ms returns 0
T6650 000:614.139 JLINK_WriteReg(R4, 0x00000000)
T6650 000:614.153 - 0.021ms returns 0
T6650 000:614.168 JLINK_WriteReg(R5, 0x00000000)
T6650 000:614.182 - 0.021ms returns 0
T6650 000:614.197 JLINK_WriteReg(R6, 0x00000000)
T6650 000:614.211 - 0.021ms returns 0
T6650 000:614.227 JLINK_WriteReg(R7, 0x00000000)
T6650 000:614.241 - 0.021ms returns 0
T6650 000:614.257 JLINK_WriteReg(R8, 0x00000000)
T6650 000:614.271 - 0.021ms returns 0
T6650 000:614.287 JLINK_WriteReg(R9, 0x2000017C)
T6650 000:614.301 - 0.021ms returns 0
T6650 000:614.316 JLINK_WriteReg(R10, 0x00000000)
T6650 000:614.331 - 0.021ms returns 0
T6650 000:614.346 JLINK_WriteReg(R11, 0x00000000)
T6650 000:614.360 - 0.021ms returns 0
T6650 000:614.375 JLINK_WriteReg(R12, 0x00000000)
T6650 000:614.389 - 0.022ms returns 0
T6650 000:614.407 JLINK_WriteReg(R13 (SP), 0x20001000)
T6650 000:614.423 - 0.023ms returns 0
T6650 000:614.438 JLINK_WriteReg(R14, 0x20000001)
T6650 000:614.452 - 0.021ms returns 0
T6650 000:614.468 JLINK_WriteReg(R15 (PC), 0x20000020)
T6650 000:614.482 - 0.021ms returns 0
T6650 000:614.497 JLINK_WriteReg(XPSR, 0x01000000)
T6650 000:614.512 - 0.021ms returns 0
T6650 000:614.527 JLINK_WriteReg(MSP, 0x20001000)
T6650 000:614.541 - 0.021ms returns 0
T6650 000:614.556 JLINK_WriteReg(PSP, 0x20001000)
T6650 000:614.570 - 0.021ms returns 0
T6650 000:614.586 JLINK_WriteReg(CFBP, 0x00000000)
T6650 000:614.600 - 0.021ms returns 0
T6650 000:614.616 JLINK_SetBPEx(Addr = 0x20000000, Type = 0xFFFFFFF2)
T6650 000:614.631 - 0.022ms returns 0x00000005
T6650 000:614.647 JLINK_Go()
T6650 000:614.671   CPU_ReadMem(4 bytes @ 0xE0001000)
T6650 000:616.703 - 2.078ms
T6650 000:616.736 JLINK_IsHalted()
T6650 000:616.986 - 0.260ms returns FALSE
T6650 000:617.007 JLINK_HasError()
T6650 000:622.584 JLINK_IsHalted()
T6650 000:622.980 - 0.426ms returns FALSE
T6650 000:623.025 JLINK_HasError()
T6650 000:624.976 JLINK_IsHalted()
T6650 000:625.296 - 0.329ms returns FALSE
T6650 000:625.314 JLINK_HasError()
T6650 000:626.965 JLINK_IsHalted()
T6650 000:627.249 - 0.297ms returns FALSE
T6650 000:627.277 JLINK_HasError()
T6650 000:631.598 JLINK_IsHalted()
T6650 000:633.581   CPU_ReadMem(2 bytes @ 0x20000000)
T6650 000:633.854 - 2.275ms returns TRUE
T6650 000:633.886 JLINK_ReadReg(R15 (PC))
T6650 000:633.904 - 0.025ms returns 0x20000000
T6650 000:633.923 JLINK_ClrBPEx(BPHandle = 0x00000005)
T6650 000:633.939 - 0.023ms returns 0x00
T6650 000:633.955 JLINK_ReadReg(R0)
T6650 000:633.969 - 0.021ms returns 0x00000000
T6650 000:634.466 JLINK_HasError()
T6650 000:634.497 JLINK_WriteReg(R0, 0x08010000)
T6650 000:634.519 - 0.030ms returns 0
T6650 000:634.538 JLINK_WriteReg(R1, 0x00010000)
T6650 000:634.556 - 0.027ms returns 0
T6650 000:634.575 JLINK_WriteReg(R2, 0x000000FF)
T6650 000:634.593 - 0.025ms returns 0
T6650 000:634.611 JLINK_WriteReg(R3, 0x00000000)
T6650 000:634.628 - 0.025ms returns 0
T6650 000:634.646 JLINK_WriteReg(R4, 0x00000000)
T6650 000:634.668 - 0.030ms returns 0
T6650 000:634.687 JLINK_WriteReg(R5, 0x00000000)
T6650 000:634.704 - 0.025ms returns 0
T6650 000:634.722 JLINK_WriteReg(R6, 0x00000000)
T6650 000:634.738 - 0.025ms returns 0
T6650 000:634.757 JLINK_WriteReg(R7, 0x00000000)
T6650 000:634.774 - 0.026ms returns 0
T6650 000:634.793 JLINK_WriteReg(R8, 0x00000000)
T6650 000:634.809 - 0.024ms returns 0
T6650 000:634.828 JLINK_WriteReg(R9, 0x2000017C)
T6650 000:634.844 - 0.025ms returns 0
T6650 000:634.863 JLINK_WriteReg(R10, 0x00000000)
T6650 000:634.881 - 0.026ms returns 0
T6650 000:634.899 JLINK_WriteReg(R11, 0x00000000)
T6650 000:634.916 - 0.025ms returns 0
T6650 000:634.935 JLINK_WriteReg(R12, 0x00000000)
T6650 000:634.952 - 0.025ms returns 0
T6650 000:634.970 JLINK_WriteReg(R13 (SP), 0x20001000)
T6650 000:634.989 - 0.026ms returns 0
T6650 000:635.005 JLINK_WriteReg(R14, 0x20000001)
T6650 000:635.020 - 0.021ms returns 0
T6650 000:635.035 JLINK_WriteReg(R15 (PC), 0x20000020)
T6650 000:635.050 - 0.021ms returns 0
T6650 000:635.065 JLINK_WriteReg(XPSR, 0x01000000)
T6650 000:635.079 - 0.026ms returns 0
T6650 000:635.099 JLINK_WriteReg(MSP, 0x20001000)
T6650 000:635.114 - 0.021ms returns 0
T6650 000:635.129 JLINK_WriteReg(PSP, 0x20001000)
T6650 000:635.143 - 0.021ms returns 0
T6650 000:635.159 JLINK_WriteReg(CFBP, 0x00000000)
T6650 000:635.173 - 0.021ms returns 0
T6650 000:635.189 JLINK_SetBPEx(Addr = 0x20000000, Type = 0xFFFFFFF2)
T6650 000:635.205 - 0.023ms returns 0x00000006
T6650 000:635.220 JLINK_Go()
T6650 000:635.246   CPU_ReadMem(4 bytes @ 0xE0001000)
T6650 000:637.440 - 2.263ms
T6650 000:637.508 JLINK_IsHalted()
T6650 000:637.761 - 0.262ms returns FALSE
T6650 000:637.780 JLINK_HasError()
T6650 000:644.655 JLINK_IsHalted()
T6650 000:644.995 - 0.349ms returns FALSE
T6650 000:645.013 JLINK_HasError()
T6650 000:647.158 JLINK_IsHalted()
T6650 000:647.448 - 0.306ms returns FALSE
T6650 000:647.478 JLINK_HasError()
T6650 000:651.832 JLINK_IsHalted()
T6650 000:652.143 - 0.320ms returns FALSE
T6650 000:652.162 JLINK_HasError()
T6650 000:654.233 JLINK_IsHalted()
T6650 000:654.541 - 0.330ms returns FALSE
T6650 000:654.576 JLINK_HasError()
T6650 000:657.724 JLINK_IsHalted()
T6650 000:658.107 - 0.392ms returns FALSE
T6650 000:658.125 JLINK_HasError()
T6650 000:660.241 JLINK_IsHalted()
T6650 000:660.560 - 0.328ms returns FALSE
T6650 000:660.580 JLINK_HasError()
T6650 000:662.577 JLINK_IsHalted()
T6650 000:662.942 - 0.373ms returns FALSE
T6650 000:662.961 JLINK_HasError()
T6650 000:666.268 JLINK_IsHalted()
T6650 000:666.587 - 0.328ms returns FALSE
T6650 000:666.607 JLINK_HasError()
T6650 000:668.620 JLINK_IsHalted()
T6650 000:668.978 - 0.377ms returns FALSE
T6650 000:669.010 JLINK_HasError()
T6650 000:673.664 JLINK_IsHalted()
T6650 000:674.560 - 0.907ms returns FALSE
T6650 000:674.582 JLINK_HasError()
T6650 000:676.074 JLINK_IsHalted()
T6650 000:676.355 - 0.294ms returns FALSE
T6650 000:676.380 JLINK_HasError()
T6650 000:680.421 JLINK_IsHalted()
T6650 000:680.740 - 0.330ms returns FALSE
T6650 000:680.761 JLINK_HasError()
T6650 000:682.383 JLINK_IsHalted()
T6650 000:682.674 - 0.316ms returns FALSE
T6650 000:682.711 JLINK_HasError()
T6650 000:686.981 JLINK_IsHalted()
T6650 000:687.324 - 0.351ms returns FALSE
T6650 000:687.344 JLINK_HasError()
T6650 000:689.095 JLINK_IsHalted()
T6650 000:689.365 - 0.284ms returns FALSE
T6650 000:689.390 JLINK_HasError()
T6650 000:691.338 JLINK_IsHalted()
T6650 000:691.647 - 0.319ms returns FALSE
T6650 000:691.666 JLINK_HasError()
T6650 000:695.983 JLINK_IsHalted()
T6650 000:697.900   CPU_ReadMem(2 bytes @ 0x20000000)
T6650 000:698.218 - 2.243ms returns TRUE
T6650 000:698.237 JLINK_ReadReg(R15 (PC))
T6650 000:698.254 - 0.024ms returns 0x20000000
T6650 000:698.270 JLINK_ClrBPEx(BPHandle = 0x00000006)
T6650 000:698.285 - 0.022ms returns 0x00
T6650 000:698.306 JLINK_ReadReg(R0)
T6650 000:698.320 - 0.021ms returns 0x00000000
T6650 000:698.658 JLINK_HasError()
T6650 000:698.681 JLINK_WriteReg(R0, 0x00000001)
T6650 000:698.699 - 0.024ms returns 0
T6650 000:698.714 JLINK_WriteReg(R1, 0x00010000)
T6650 000:698.728 - 0.021ms returns 0
T6650 000:698.748 JLINK_WriteReg(R2, 0x000000FF)
T6650 000:698.762 - 0.021ms returns 0
T6650 000:698.777 JLINK_WriteReg(R3, 0x00000000)
T6650 000:698.791 - 0.021ms returns 0
T6650 000:698.806 JLINK_WriteReg(R4, 0x00000000)
T6650 000:698.820 - 0.020ms returns 0
T6650 000:698.835 JLINK_WriteReg(R5, 0x00000000)
T6650 000:698.849 - 0.021ms returns 0
T6650 000:698.864 JLINK_WriteReg(R6, 0x00000000)
T6650 000:698.877 - 0.020ms returns 0
T6650 000:698.892 JLINK_WriteReg(R7, 0x00000000)
T6650 000:698.907 - 0.021ms returns 0
T6650 000:698.922 JLINK_WriteReg(R8, 0x00000000)
T6650 000:698.936 - 0.021ms returns 0
T6650 000:698.951 JLINK_WriteReg(R9, 0x2000017C)
T6650 000:698.965 - 0.021ms returns 0
T6650 000:698.980 JLINK_WriteReg(R10, 0x00000000)
T6650 000:698.994 - 0.021ms returns 0
T6650 000:699.009 JLINK_WriteReg(R11, 0x00000000)
T6650 000:699.024 - 0.021ms returns 0
T6650 000:699.039 JLINK_WriteReg(R12, 0x00000000)
T6650 000:699.053 - 0.021ms returns 0
T6650 000:699.068 JLINK_WriteReg(R13 (SP), 0x20001000)
T6650 000:699.082 - 0.021ms returns 0
T6650 000:699.097 JLINK_WriteReg(R14, 0x20000001)
T6650 000:699.123 - 0.036ms returns 0
T6650 000:699.148 JLINK_WriteReg(R15 (PC), 0x20000082)
T6650 000:699.171 - 0.039ms returns 0
T6650 000:699.201 JLINK_WriteReg(XPSR, 0x01000000)
T6650 000:699.224 - 0.034ms returns 0
T6650 000:699.249 JLINK_WriteReg(MSP, 0x20001000)
T6650 000:699.271 - 0.034ms returns 0
T6650 000:699.296 JLINK_WriteReg(PSP, 0x20001000)
T6650 000:699.319 - 0.034ms returns 0
T6650 000:699.432 JLINK_WriteReg(CFBP, 0x00000000)
T6650 000:699.457 - 0.036ms returns 0
T6650 000:699.484 JLINK_SetBPEx(Addr = 0x20000000, Type = 0xFFFFFFF2)
T6650 000:699.525 - 0.054ms returns 0x00000007
T6650 000:699.551 JLINK_Go()
T6650 000:699.581   CPU_ReadMem(4 bytes @ 0xE0001000)
T6650 000:701.739 - 2.206ms
T6650 000:701.769 JLINK_IsHalted()
T6650 000:703.589   CPU_ReadMem(2 bytes @ 0x20000000)
T6650 000:704.040 - 2.295ms returns TRUE
T6650 000:704.083 JLINK_ReadReg(R15 (PC))
T6650 000:704.107 - 0.032ms returns 0x20000000
T6650 000:704.126 JLINK_ClrBPEx(BPHandle = 0x00000007)
T6650 000:704.145 - 0.026ms returns 0x00
T6650 000:704.164 JLINK_ReadReg(R0)
T6650 000:704.182 - 0.026ms returns 0x00000000
T6650 000:769.649 JLINK_WriteMem(0x20000000, 0x180 Bytes, ...)
T6650 000:769.676   Data:  00 BE 0A E0 0D 78 2D 06 68 40 08 24 40 00 00 D3 ...
T6650 000:769.710   CPU_WriteMem(384 bytes @ 0x20000000)
T6650 000:771.504 - 1.912ms returns 0x180
T6650 000:771.588 JLINK_HasError()
T6650 000:771.605 JLINK_WriteReg(R0, 0x08000000)
T6650 000:771.621 - 0.028ms returns 0
T6650 000:771.641 JLINK_WriteReg(R1, 0x007A1200)
T6650 000:771.655 - 0.020ms returns 0
T6650 000:771.670 JLINK_WriteReg(R2, 0x00000002)
T6650 000:771.684 - 0.020ms returns 0
T6650 000:771.698 JLINK_WriteReg(R3, 0x00000000)
T6650 000:771.717 - 0.026ms returns 0
T6650 000:771.733 JLINK_WriteReg(R4, 0x00000000)
T6650 000:771.746 - 0.020ms returns 0
T6650 000:771.761 JLINK_WriteReg(R5, 0x00000000)
T6650 000:771.776 - 0.021ms returns 0
T6650 000:771.790 JLINK_WriteReg(R6, 0x00000000)
T6650 000:771.804 - 0.020ms returns 0
T6650 000:771.819 JLINK_WriteReg(R7, 0x00000000)
T6650 000:771.833 - 0.020ms returns 0
T6650 000:771.848 JLINK_WriteReg(R8, 0x00000000)
T6650 000:771.862 - 0.021ms returns 0
T6650 000:771.877 JLINK_WriteReg(R9, 0x2000017C)
T6650 000:771.891 - 0.021ms returns 0
T6650 000:771.906 JLINK_WriteReg(R10, 0x00000000)
T6650 000:771.920 - 0.021ms returns 0
T6650 000:771.934 JLINK_WriteReg(R11, 0x00000000)
T6650 000:771.948 - 0.020ms returns 0
T6650 000:771.963 JLINK_WriteReg(R12, 0x00000000)
T6650 000:771.977 - 0.020ms returns 0
T6650 000:771.992 JLINK_WriteReg(R13 (SP), 0x20001000)
T6650 000:772.007 - 0.022ms returns 0
T6650 000:772.022 JLINK_WriteReg(R14, 0x20000001)
T6650 000:772.036 - 0.020ms returns 0
T6650 000:772.051 JLINK_WriteReg(R15 (PC), 0x20000054)
T6650 000:772.069 - 0.025ms returns 0
T6650 000:772.084 JLINK_WriteReg(XPSR, 0x01000000)
T6650 000:772.098 - 0.020ms returns 0
T6650 000:772.113 JLINK_WriteReg(MSP, 0x20001000)
T6650 000:772.127 - 0.020ms returns 0
T6650 000:772.142 JLINK_WriteReg(PSP, 0x20001000)
T6650 000:772.156 - 0.020ms returns 0
T6650 000:772.170 JLINK_WriteReg(CFBP, 0x00000000)
T6650 000:772.184 - 0.020ms returns 0
T6650 000:772.199 JLINK_SetBPEx(Addr = 0x20000000, Type = 0xFFFFFFF2)
T6650 000:772.218   CPU_ReadMem(2 bytes @ 0x20000000)
T6650 000:772.477 - 0.286ms returns 0x00000008
T6650 000:772.494 JLINK_Go()
T6650 000:772.510   CPU_WriteMem(2 bytes @ 0x20000000)
T6650 000:772.791   CPU_ReadMem(4 bytes @ 0xE0001000)
T6650 000:774.949 - 2.482ms
T6650 000:774.988 JLINK_IsHalted()
T6650 000:777.055   CPU_ReadMem(2 bytes @ 0x20000000)
T6650 000:777.339 - 2.375ms returns TRUE
T6650 000:777.379 JLINK_ReadReg(R15 (PC))
T6650 000:777.401 - 0.031ms returns 0x20000000
T6650 000:777.420 JLINK_ClrBPEx(BPHandle = 0x00000008)
T6650 000:777.439 - 0.028ms returns 0x00
T6650 000:777.458 JLINK_ReadReg(R0)
T6650 000:777.476 - 0.026ms returns 0x00000000
T6650 000:778.081 JLINK_WriteMem(0x20000180, 0x280 Bytes, ...)
T6650 000:778.114   Data:  D8 01 01 20 5D 02 00 08 69 61 00 08 59 5A 00 08 ...
T6650 000:778.144   CPU_WriteMem(640 bytes @ 0x20000180)
T6650 000:780.557 - 2.502ms returns 0x280
T6650 000:780.595 JLINK_WriteMem(0x20000400, 0x180 Bytes, ...)
T6650 000:780.610   Data:  2D E9 F0 5F 05 46 00 20 92 46 9B 46 88 46 06 46 ...
T6650 000:780.639   CPU_WriteMem(384 bytes @ 0x20000400)
T6650 000:782.293 - 1.713ms returns 0x180
T6650 000:782.321 JLINK_HasError()
T6650 000:782.338 JLINK_WriteReg(R0, 0x08000000)
T6650 000:782.355 - 0.024ms returns 0
T6650 000:782.370 JLINK_WriteReg(R1, 0x00000400)
T6650 000:782.385 - 0.021ms returns 0
T6650 000:782.400 JLINK_WriteReg(R2, 0x20000180)
T6650 000:782.414 - 0.021ms returns 0
T6650 000:782.430 JLINK_WriteReg(R3, 0x00000000)
T6650 000:782.445 - 0.021ms returns 0
T6650 000:782.460 JLINK_WriteReg(R4, 0x00000000)
T6650 000:782.474 - 0.020ms returns 0
T6650 000:782.488 JLINK_WriteReg(R5, 0x00000000)
T6650 000:782.503 - 0.021ms returns 0
T6650 000:782.518 JLINK_WriteReg(R6, 0x00000000)
T6650 000:782.532 - 0.021ms returns 0
T6650 000:782.548 JLINK_WriteReg(R7, 0x00000000)
T6650 000:782.562 - 0.021ms returns 0
T6650 000:782.577 JLINK_WriteReg(R8, 0x00000000)
T6650 000:782.591 - 0.021ms returns 0
T6650 000:782.606 JLINK_WriteReg(R9, 0x2000017C)
T6650 000:782.620 - 0.021ms returns 0
T6650 000:782.635 JLINK_WriteReg(R10, 0x00000000)
T6650 000:782.649 - 0.021ms returns 0
T6650 000:782.664 JLINK_WriteReg(R11, 0x00000000)
T6650 000:782.678 - 0.020ms returns 0
T6650 000:782.695 JLINK_WriteReg(R12, 0x00000000)
T6650 000:782.709 - 0.021ms returns 0
T6650 000:782.725 JLINK_WriteReg(R13 (SP), 0x20001000)
T6650 000:782.740 - 0.021ms returns 0
T6650 000:782.755 JLINK_WriteReg(R14, 0x20000001)
T6650 000:782.769 - 0.025ms returns 0
T6650 000:782.791 JLINK_WriteReg(R15 (PC), 0x20000108)
T6650 000:782.805 - 0.021ms returns 0
T6650 000:782.820 JLINK_WriteReg(XPSR, 0x01000000)
T6650 000:782.835 - 0.021ms returns 0
T6650 000:782.850 JLINK_WriteReg(MSP, 0x20001000)
T6650 000:782.864 - 0.021ms returns 0
T6650 000:782.880 JLINK_WriteReg(PSP, 0x20001000)
T6650 000:782.893 - 0.020ms returns 0
T6650 000:782.908 JLINK_WriteReg(CFBP, 0x00000000)
T6650 000:782.922 - 0.020ms returns 0
T6650 000:782.937 JLINK_SetBPEx(Addr = 0x20000000, Type = 0xFFFFFFF2)
T6650 000:782.953 - 0.022ms returns 0x00000009
T6650 000:782.968 JLINK_Go()
T6650 000:782.989   CPU_ReadMem(4 bytes @ 0xE0001000)
T6650 000:785.178 - 2.223ms
T6650 000:785.201 JLINK_IsHalted()
T6650 000:785.482 - 0.289ms returns FALSE
T6650 000:785.499 JLINK_HasError()
T6650 000:794.312 JLINK_IsHalted()
T6650 000:796.335   CPU_ReadMem(2 bytes @ 0x20000000)
T6650 000:796.609 - 2.314ms returns TRUE
T6650 000:796.638 JLINK_ReadReg(R15 (PC))
T6650 000:796.655 - 0.024ms returns 0x20000000
T6650 000:796.671 JLINK_ClrBPEx(BPHandle = 0x00000009)
T6650 000:796.686 - 0.022ms returns 0x00
T6650 000:796.702 JLINK_ReadReg(R0)
T6650 000:796.716 - 0.022ms returns 0x00000000
T6650 000:797.240 JLINK_WriteMem(0x20000180, 0x280 Bytes, ...)
T6650 000:797.265   Data:  00 F0 46 FA 03 B0 BD E8 F0 8F 40 46 21 46 F9 E7 ...
T6650 000:797.295   CPU_WriteMem(640 bytes @ 0x20000180)
T6650 000:799.779 - 2.573ms returns 0x280
T6650 000:799.827 JLINK_WriteMem(0x20000400, 0x180 Bytes, ...)
T6650 000:799.843   Data:  00 21 CD E9 00 11 0A 46 0B 46 00 F0 01 F9 03 B0 ...
T6650 000:799.875   CPU_WriteMem(384 bytes @ 0x20000400)
T6650 000:801.546 - 1.742ms returns 0x180
T6650 000:801.580 JLINK_HasError()
T6650 000:801.597 JLINK_WriteReg(R0, 0x08000400)
T6650 000:801.615 - 0.026ms returns 0
T6650 000:801.632 JLINK_WriteReg(R1, 0x00000400)
T6650 000:801.647 - 0.022ms returns 0
T6650 000:801.663 JLINK_WriteReg(R2, 0x20000180)
T6650 000:801.677 - 0.022ms returns 0
T6650 000:801.693 JLINK_WriteReg(R3, 0x00000000)
T6650 000:801.708 - 0.022ms returns 0
T6650 000:801.724 JLINK_WriteReg(R4, 0x00000000)
T6650 000:801.739 - 0.021ms returns 0
T6650 000:801.754 JLINK_WriteReg(R5, 0x00000000)
T6650 000:801.769 - 0.021ms returns 0
T6650 000:801.784 JLINK_WriteReg(R6, 0x00000000)
T6650 000:801.799 - 0.021ms returns 0
T6650 000:801.815 JLINK_WriteReg(R7, 0x00000000)
T6650 000:801.829 - 0.022ms returns 0
T6650 000:801.845 JLINK_WriteReg(R8, 0x00000000)
T6650 000:801.860 - 0.022ms returns 0
T6650 000:801.876 JLINK_WriteReg(R9, 0x2000017C)
T6650 000:801.891 - 0.022ms returns 0
T6650 000:801.906 JLINK_WriteReg(R10, 0x00000000)
T6650 000:801.921 - 0.022ms returns 0
T6650 000:801.937 JLINK_WriteReg(R11, 0x00000000)
T6650 000:801.952 - 0.022ms returns 0
T6650 000:801.968 JLINK_WriteReg(R12, 0x00000000)
T6650 000:801.983 - 0.022ms returns 0
T6650 000:801.998 JLINK_WriteReg(R13 (SP), 0x20001000)
T6650 000:802.014 - 0.023ms returns 0
T6650 000:802.030 JLINK_WriteReg(R14, 0x20000001)
T6650 000:802.044 - 0.021ms returns 0
T6650 000:802.060 JLINK_WriteReg(R15 (PC), 0x20000108)
T6650 000:802.075 - 0.022ms returns 0
T6650 000:802.091 JLINK_WriteReg(XPSR, 0x01000000)
T6650 000:802.106 - 0.022ms returns 0
T6650 000:802.121 JLINK_WriteReg(MSP, 0x20001000)
T6650 000:802.136 - 0.021ms returns 0
T6650 000:802.151 JLINK_WriteReg(PSP, 0x20001000)
T6650 000:802.166 - 0.021ms returns 0
T6650 000:802.182 JLINK_WriteReg(CFBP, 0x00000000)
T6650 000:802.196 - 0.022ms returns 0
T6650 000:802.212 JLINK_SetBPEx(Addr = 0x20000000, Type = 0xFFFFFFF2)
T6650 000:802.228 - 0.023ms returns 0x0000000A
T6650 000:802.244 JLINK_Go()
T6650 000:802.266   CPU_ReadMem(4 bytes @ 0xE0001000)
T6650 000:804.345 - 2.127ms
T6650 000:804.386 JLINK_IsHalted()
T6650 000:804.642 - 0.272ms returns FALSE
T6650 000:804.669 JLINK_HasError()
T6650 000:808.719 JLINK_IsHalted()
T6650 000:810.839   CPU_ReadMem(2 bytes @ 0x20000000)
T6650 000:811.161 - 2.458ms returns TRUE
T6650 000:811.189 JLINK_ReadReg(R15 (PC))
T6650 000:811.213 - 0.033ms returns 0x20000000
T6650 000:811.231 JLINK_ClrBPEx(BPHandle = 0x0000000A)
T6650 000:811.246 - 0.021ms returns 0x00
T6650 000:811.261 JLINK_ReadReg(R0)
T6650 000:811.276 - 0.023ms returns 0x00000000
T6650 000:811.889 JLINK_WriteMem(0x20000180, 0x280 Bytes, ...)
T6650 000:811.914   Data:  10 BC 70 47 00 EB C3 50 10 44 00 29 A4 BF 10 BC ...
T6650 000:811.944   CPU_WriteMem(640 bytes @ 0x20000180)
T6650 000:814.336 - 2.458ms returns 0x280
T6650 000:814.360 JLINK_WriteMem(0x20000400, 0x180 Bytes, ...)
T6650 000:814.378   Data:  01 6B 5B 1E F9 D1 2B 07 05 D4 00 23 52 1E 0D D4 ...
T6650 000:814.408   CPU_WriteMem(384 bytes @ 0x20000400)
T6650 000:816.410 - 2.064ms returns 0x180
T6650 000:816.436 JLINK_HasError()
T6650 000:816.488 JLINK_WriteReg(R0, 0x08000800)
T6650 000:816.511 - 0.041ms returns 0
T6650 000:816.541 JLINK_WriteReg(R1, 0x00000400)
T6650 000:816.555 - 0.021ms returns 0
T6650 000:816.571 JLINK_WriteReg(R2, 0x20000180)
T6650 000:816.585 - 0.021ms returns 0
T6650 000:816.600 JLINK_WriteReg(R3, 0x00000000)
T6650 000:816.614 - 0.021ms returns 0
T6650 000:816.630 JLINK_WriteReg(R4, 0x00000000)
T6650 000:816.644 - 0.021ms returns 0
T6650 000:816.659 JLINK_WriteReg(R5, 0x00000000)
T6650 000:816.673 - 0.020ms returns 0
T6650 000:816.688 JLINK_WriteReg(R6, 0x00000000)
T6650 000:816.702 - 0.021ms returns 0
T6650 000:816.718 JLINK_WriteReg(R7, 0x00000000)
T6650 000:816.732 - 0.021ms returns 0
T6650 000:816.747 JLINK_WriteReg(R8, 0x00000000)
T6650 000:816.762 - 0.021ms returns 0
T6650 000:816.777 JLINK_WriteReg(R9, 0x2000017C)
T6650 000:816.791 - 0.020ms returns 0
T6650 000:816.806 JLINK_WriteReg(R10, 0x00000000)
T6650 000:816.820 - 0.021ms returns 0
T6650 000:816.835 JLINK_WriteReg(R11, 0x00000000)
T6650 000:816.849 - 0.021ms returns 0
T6650 000:816.865 JLINK_WriteReg(R12, 0x00000000)
T6650 000:816.879 - 0.021ms returns 0
T6650 000:816.894 JLINK_WriteReg(R13 (SP), 0x20001000)
T6650 000:816.909 - 0.021ms returns 0
T6650 000:816.924 JLINK_WriteReg(R14, 0x20000001)
T6650 000:816.943 - 0.025ms returns 0
T6650 000:816.958 JLINK_WriteReg(R15 (PC), 0x20000108)
T6650 000:816.973 - 0.021ms returns 0
T6650 000:817.019 JLINK_WriteReg(XPSR, 0x01000000)
T6650 000:817.052 - 0.041ms returns 0
T6650 000:817.071 JLINK_WriteReg(MSP, 0x20001000)
T6650 000:817.090 - 0.027ms returns 0
T6650 000:817.109 JLINK_WriteReg(PSP, 0x20001000)
T6650 000:817.125 - 0.025ms returns 0
T6650 000:817.144 JLINK_WriteReg(CFBP, 0x00000000)
T6650 000:817.159 - 0.022ms returns 0
T6650 000:817.175 JLINK_SetBPEx(Addr = 0x20000000, Type = 0xFFFFFFF2)
T6650 000:817.191 - 0.023ms returns 0x0000000B
T6650 000:817.206 JLINK_Go()
T6650 000:817.229   CPU_ReadMem(4 bytes @ 0xE0001000)
T6650 000:819.476 - 2.287ms
T6650 000:819.504 JLINK_IsHalted()
T6650 000:819.738 - 0.241ms returns FALSE
T6650 000:819.755 JLINK_HasError()
T6650 000:822.751 JLINK_IsHalted()
T6650 000:823.081 - 0.338ms returns FALSE
T6650 000:823.099 JLINK_HasError()
T6650 000:824.914 JLINK_IsHalted()
T6650 000:828.080   CPU_ReadMem(2 bytes @ 0x20000000)
T6650 000:828.389 - 3.500ms returns TRUE
T6650 000:828.434 JLINK_ReadReg(R15 (PC))
T6650 000:828.452 - 0.024ms returns 0x20000000
T6650 000:828.468 JLINK_ClrBPEx(BPHandle = 0x0000000B)
T6650 000:828.482 - 0.021ms returns 0x00
T6650 000:828.498 JLINK_ReadReg(R0)
T6650 000:828.512 - 0.021ms returns 0x00000000
T6650 000:828.978 JLINK_WriteMem(0x20000180, 0x280 Bytes, ...)
T6650 000:829.003   Data:  08 70 0B 20 17 49 08 70 64 20 0C F0 41 FF 07 20 ...
T6650 000:829.031   CPU_WriteMem(640 bytes @ 0x20000180)
T6650 000:831.509 - 2.641ms returns 0x280
T6650 000:831.632 JLINK_WriteMem(0x20000400, 0x180 Bytes, ...)
T6650 000:831.648   Data:  ED FD 20 48 90 ED 01 0A 16 48 80 ED 00 0A 9F ED ...
T6650 000:831.679   CPU_WriteMem(384 bytes @ 0x20000400)
T6650 000:833.375 - 1.755ms returns 0x180
T6650 000:833.400 JLINK_HasError()
T6650 000:833.420 JLINK_WriteReg(R0, 0x08000C00)
T6650 000:833.437 - 0.024ms returns 0
T6650 000:833.453 JLINK_WriteReg(R1, 0x00000400)
T6650 000:833.473 - 0.037ms returns 0
T6650 000:833.502 JLINK_WriteReg(R2, 0x20000180)
T6650 000:833.522 - 0.030ms returns 0
T6650 000:833.543 JLINK_WriteReg(R3, 0x00000000)
T6650 000:833.563 - 0.030ms returns 0
T6650 000:833.584 JLINK_WriteReg(R4, 0x00000000)
T6650 000:833.603 - 0.026ms returns 0
T6650 000:833.619 JLINK_WriteReg(R5, 0x00000000)
T6650 000:833.633 - 0.021ms returns 0
T6650 000:833.649 JLINK_WriteReg(R6, 0x00000000)
T6650 000:833.663 - 0.021ms returns 0
T6650 000:833.679 JLINK_WriteReg(R7, 0x00000000)
T6650 000:833.693 - 0.021ms returns 0
T6650 000:833.708 JLINK_WriteReg(R8, 0x00000000)
T6650 000:833.723 - 0.022ms returns 0
T6650 000:833.739 JLINK_WriteReg(R9, 0x2000017C)
T6650 000:833.753 - 0.021ms returns 0
T6650 000:833.769 JLINK_WriteReg(R10, 0x00000000)
T6650 000:833.783 - 0.021ms returns 0
T6650 000:833.798 JLINK_WriteReg(R11, 0x00000000)
T6650 000:833.813 - 0.021ms returns 0
T6650 000:833.828 JLINK_WriteReg(R12, 0x00000000)
T6650 000:833.843 - 0.021ms returns 0
T6650 000:833.858 JLINK_WriteReg(R13 (SP), 0x20001000)
T6650 000:833.873 - 0.022ms returns 0
T6650 000:833.888 JLINK_WriteReg(R14, 0x20000001)
T6650 000:833.902 - 0.021ms returns 0
T6650 000:833.918 JLINK_WriteReg(R15 (PC), 0x20000108)
T6650 000:833.933 - 0.021ms returns 0
T6650 000:833.948 JLINK_WriteReg(XPSR, 0x01000000)
T6650 000:833.962 - 0.021ms returns 0
T6650 000:833.978 JLINK_WriteReg(MSP, 0x20001000)
T6650 000:833.992 - 0.021ms returns 0
T6650 000:834.007 JLINK_WriteReg(PSP, 0x20001000)
T6650 000:834.022 - 0.021ms returns 0
T6650 000:834.037 JLINK_WriteReg(CFBP, 0x00000000)
T6650 000:834.052 - 0.021ms returns 0
T6650 000:834.067 JLINK_SetBPEx(Addr = 0x20000000, Type = 0xFFFFFFF2)
T6650 000:834.083 - 0.022ms returns 0x0000000C
T6650 000:834.098 JLINK_Go()
T6650 000:834.119   CPU_ReadMem(4 bytes @ 0xE0001000)
T6650 000:836.409 - 2.337ms
T6650 000:836.448 JLINK_IsHalted()
T6650 000:836.734 - 0.295ms returns FALSE
T6650 000:836.753 JLINK_HasError()
T6650 000:847.346 JLINK_IsHalted()
T6650 000:849.279   CPU_ReadMem(2 bytes @ 0x20000000)
T6650 000:849.597 - 2.259ms returns TRUE
T6650 000:849.616 JLINK_ReadReg(R15 (PC))
T6650 000:849.634 - 0.024ms returns 0x20000000
T6650 000:849.649 JLINK_ClrBPEx(BPHandle = 0x0000000C)
T6650 000:849.664 - 0.022ms returns 0x00
T6650 000:849.680 JLINK_ReadReg(R0)
T6650 000:849.695 - 0.021ms returns 0x00000000
T6650 000:850.161 JLINK_WriteMem(0x20000180, 0x280 Bytes, ...)
T6650 000:850.193   Data:  51 EC 18 0B FF F7 70 FB CC D9 BD EC 04 8B 10 BD ...
T6650 000:850.224   CPU_WriteMem(640 bytes @ 0x20000180)
T6650 000:852.674 - 2.538ms returns 0x280
T6650 000:852.713 JLINK_WriteMem(0x20000400, 0x180 Bytes, ...)
T6650 000:852.731   Data:  04 48 02 F0 84 F8 02 21 02 48 01 F0 79 FA 0A B0 ...
T6650 000:852.762   CPU_WriteMem(384 bytes @ 0x20000400)
T6650 000:854.493 - 1.806ms returns 0x180
T6650 000:854.536 JLINK_HasError()
T6650 000:854.557 JLINK_WriteReg(R0, 0x08001000)
T6650 000:854.627 - 0.081ms returns 0
T6650 000:854.651 JLINK_WriteReg(R1, 0x00000400)
T6650 000:854.673 - 0.032ms returns 0
T6650 000:854.695 JLINK_WriteReg(R2, 0x20000180)
T6650 000:854.716 - 0.032ms returns 0
T6650 000:854.740 JLINK_WriteReg(R3, 0x00000000)
T6650 000:854.761 - 0.031ms returns 0
T6650 000:854.783 JLINK_WriteReg(R4, 0x00000000)
T6650 000:854.806 - 0.033ms returns 0
T6650 000:854.829 JLINK_WriteReg(R5, 0x00000000)
T6650 000:854.850 - 0.030ms returns 0
T6650 000:854.872 JLINK_WriteReg(R6, 0x00000000)
T6650 000:854.893 - 0.031ms returns 0
T6650 000:854.915 JLINK_WriteReg(R7, 0x00000000)
T6650 000:854.935 - 0.030ms returns 0
T6650 000:854.957 JLINK_WriteReg(R8, 0x00000000)
T6650 000:854.978 - 0.032ms returns 0
T6650 000:855.002 JLINK_WriteReg(R9, 0x2000017C)
T6650 000:855.024 - 0.033ms returns 0
T6650 000:855.047 JLINK_WriteReg(R10, 0x00000000)
T6650 000:855.069 - 0.030ms returns 0
T6650 000:855.089 JLINK_WriteReg(R11, 0x00000000)
T6650 000:855.107 - 0.026ms returns 0
T6650 000:855.125 JLINK_WriteReg(R12, 0x00000000)
T6650 000:855.143 - 0.026ms returns 0
T6650 000:855.168 JLINK_WriteReg(R13 (SP), 0x20001000)
T6650 000:855.191 - 0.032ms returns 0
T6650 000:855.211 JLINK_WriteReg(R14, 0x20000001)
T6650 000:855.230 - 0.028ms returns 0
T6650 000:855.250 JLINK_WriteReg(R15 (PC), 0x20000108)
T6650 000:855.270 - 0.034ms returns 0
T6650 000:855.295 JLINK_WriteReg(XPSR, 0x01000000)
T6650 000:855.314 - 0.028ms returns 0
T6650 000:855.334 JLINK_WriteReg(MSP, 0x20001000)
T6650 000:855.353 - 0.028ms returns 0
T6650 000:855.374 JLINK_WriteReg(PSP, 0x20001000)
T6650 000:855.393 - 0.028ms returns 0
T6650 000:855.413 JLINK_WriteReg(CFBP, 0x00000000)
T6650 000:855.432 - 0.028ms returns 0
T6650 000:855.453 JLINK_SetBPEx(Addr = 0x20000000, Type = 0xFFFFFFF2)
T6650 000:855.474 - 0.030ms returns 0x0000000D
T6650 000:855.495 JLINK_Go()
T6650 000:855.523   CPU_ReadMem(4 bytes @ 0xE0001000)
T6650 000:857.731 - 2.250ms
T6650 000:857.759 JLINK_IsHalted()
T6650 000:858.018 - 0.270ms returns FALSE
T6650 000:858.048 JLINK_HasError()
T6650 000:862.828 JLINK_IsHalted()
T6650 000:864.800   CPU_ReadMem(2 bytes @ 0x20000000)
T6650 000:865.121 - 2.312ms returns TRUE
T6650 000:865.148 JLINK_ReadReg(R15 (PC))
T6650 000:865.167 - 0.026ms returns 0x20000000
T6650 000:865.183 JLINK_ClrBPEx(BPHandle = 0x0000000D)
T6650 000:865.199 - 0.023ms returns 0x00
T6650 000:865.216 JLINK_ReadReg(R0)
T6650 000:865.231 - 0.022ms returns 0x00000000
T6650 000:865.688 JLINK_WriteMem(0x20000180, 0x280 Bytes, ...)
T6650 000:865.715   Data:  4E 0A F0 EE 6E 0A 08 F0 5B FE B0 EE 40 DA F0 EE ...
T6650 000:865.748   CPU_WriteMem(640 bytes @ 0x20000180)
T6650 000:868.219 - 2.547ms returns 0x280
T6650 000:868.254 JLINK_WriteMem(0x20000400, 0x180 Bytes, ...)
T6650 000:868.273   Data:  B8 48 80 ED 00 0A B0 48 D0 ED 19 0A 9F ED AF 1A ...
T6650 000:868.306   CPU_WriteMem(384 bytes @ 0x20000400)
T6650 000:870.005 - 1.762ms returns 0x180
T6650 000:870.034 JLINK_HasError()
